! File: Tecplot touchstone file demo 
! Device #: 001 
! Frequency points: 201 
! Date: 30 Aug 2002 
! Time: 07:30:00 
# GHZ S DB R 50 
!freq dBS11 AngS11 dBS21 AngS21 dBS12 AngS12 dBS21 AngS21 

   .19900 -15.1726 +178.83 +16.5392 +178.52 -19.7245    +.26 -16.6009 +179.85
   .29801 -14.9334 +178.05 +16.6036 +177.13 -19.7292    +.33 -16.4263 +179.29
   .39701 -15.0164 +177.12 +16.5895 +175.72 -19.7223    +.51 -16.4582 +178.26
   .49602 -15.0309 +176.04 +16.5706 +174.38 -19.7230    +.84 -16.4170 +177.78
   .59502 -15.0099 +175.23 +16.5770 +172.99 -19.6983    +.98 -16.4563 +176.82
   .69403 -14.9546 +174.26 +16.5748 +171.69 -19.6924   +1.04 -16.4366 +176.44
   .79303 -15.0497 +173.24 +16.5315 +170.34 -19.6900   +1.29 -16.4650 +175.39
   .89204 -14.9568 +172.39 +16.6290 +168.72 -19.6793   +1.33 -16.4336 +175.01
   .99104 -15.1956 +171.79 +16.5519 +167.55 -19.6537   +1.59 -16.3942 +174.49
  1.09005 -15.1194 +171.11 +16.5881 +166.44 -19.6686   +1.68 -16.4570 +174.38
  1.18905 -15.0961 +169.78 +16.5375 +165.25 -19.6205   +1.85 -16.4266 +173.64
  1.28806 -15.2832 +169.08 +16.6011 +163.26 -19.6260   +1.96 -16.4735 +172.93
  1.38706 -15.2750 +168.47 +16.6135 +162.01 -19.5764   +2.27 -16.5130 +172.49
  1.48607 -15.4095 +167.37 +16.5904 +160.94 -19.5623   +2.19 -16.4856 +172.28
  1.58507 -15.5118 +167.09 +16.5468 +159.81 -19.5637   +2.43 -16.4840 +171.13
  1.68408 -15.5610 +165.87 +16.5535 +158.58 -19.5466   +2.49 -16.5122 +170.57
  1.78308 -15.8600 +165.37 +16.4922 +157.58 -19.5355   +2.64 -16.4324 +169.94
  1.88209 -15.8243 +164.93 +16.5113 +156.17 -19.5015   +2.71 -16.5125 +169.18
  1.98109 -16.0021 +163.97 +16.5785 +153.75 -19.4785   +2.81 -16.4640 +168.76
  2.08010 -16.2377 +163.56 +16.5393 +152.41 -19.4444   +3.07 -16.4293 +167.77
  2.17910 -16.1746 +162.77 +16.5694 +150.91 -19.4246   +3.21 -16.4565 +167.30
  2.27811 -16.4342 +162.50 +16.5415 +149.58 -19.3681   +3.11 -16.4622 +166.44
  2.37711 -16.6912 +161.89 +16.5138 +148.13 -19.3761   +3.12 -16.4361 +165.78
  2.47612 -16.5244 +160.93 +16.5533 +146.54 -19.3189   +3.43 -16.4337 +164.54
  2.57512 -16.8862 +160.59 +16.4947 +145.48 -19.2974   +3.36 -16.4792 +164.14
  2.67413 -17.3218 +161.06 +16.4883 +143.80 -19.2006   +3.59 -16.4813 +163.53
  2.77313 -17.5081 +159.14 +16.4256 +142.76 -19.2286   +3.59 -16.5263 +162.38
  2.87214 -17.7871 +160.75 +16.4568 +141.42 -19.1910   +3.65 -16.5139 +162.17
  2.97114 -17.8005 +157.01 +16.4559 +140.17 -19.1553   +3.81 -16.5069 +161.29
  3.07015 -17.8283 +160.14 +16.4247 +139.23 -19.1214   +3.89 -16.6292 +160.57
  3.16915 -18.4341 +157.44 +16.4396 +137.81 -19.0936   +3.74 -16.5062 +160.10
  3.26816 -18.0730 +155.92 +16.4770 +136.75 -19.0778   +3.88 -16.5743 +158.46
  3.36716 -18.4896 +157.62 +16.4212 +135.71 -19.0024   +3.92 -16.5208 +157.67
  3.46617 -18.4550 +156.11 +16.4980 +134.23 -19.0046   +3.94 -16.5192 +156.52
  3.56517 -19.0115 +157.61 +16.5216 +133.04 -18.9366   +3.96 -16.5274 +156.19
  3.66418 -18.9113 +155.65 +16.5765 +131.54 -18.9314   +3.97 -16.5370 +154.73
  3.76318 -19.2452 +156.11 +16.5748 +130.37 -18.8785   +4.18 -16.5823 +153.54
  3.86219 -19.5784 +155.21 +16.5909 +128.95 -18.8313   +3.89 -16.6774 +153.28
  3.96119 -19.9466 +157.60 +16.5002 +127.50 -18.7650   +4.13 -16.6145 +151.36
  4.06020 -20.2294 +155.93 +16.5099 +125.97 -18.7142   +3.92 -16.7392 +151.16
  4.15920 -20.4653 +158.82 +16.5149 +124.45 -18.7162   +3.99 -16.8169 +150.17
  4.25821 -20.9778 +157.27 +16.4849 +122.94 -18.6881   +3.90 -16.9176 +148.61
  4.35721 -20.9537 +162.94 +16.4914 +121.59 -18.6360   +3.69 -16.9013 +148.13
  4.45622 -21.8313 +163.03 +16.4659 +119.92 -18.5516   +3.66 -17.0143 +146.59
  4.55522 -21.4701 +164.09 +16.4439 +118.40 -18.5489   +3.88 -17.0184 +146.14
  4.65423 -22.0624 +167.27 +16.4614 +116.97 -18.4940   +3.47 -17.1060 +144.75
  4.75323 -22.1431 +167.09 +16.3877 +115.44 -18.4333   +3.66 -17.1959 +143.94
  4.85224 -22.4409 +168.89 +16.2607 +112.12 -18.3854   +3.47 -17.2044 +142.08
  4.95124 -22.7591 +172.52 +16.1529 +110.70 -18.3513   +3.46 -17.2852 +141.25
  5.05025 -22.8831 +174.18 +16.0431 +108.81 -18.3330   +3.30 -17.3439 +140.23
  5.14925 -22.9986 +175.74 +16.0700 +107.22 -18.2503   +3.46 -17.4653 +138.87
  5.24826 -23.1582 +178.90 +16.0663 +105.46 -18.2661   +3.22 -17.4583 +137.82
  5.34726 -23.1684 -179.13 +16.0880 +104.30 -18.1907   +2.96 -17.4787 +135.94
  5.44627 -23.0601 -175.68 +16.0491 +103.07 -18.1648   +2.97 -17.5480 +135.52
  5.54527 -23.3092 -172.82 +15.9926 +101.61 -18.0627   +2.56 -17.6935 +133.22
  5.64428 -23.3599 -171.93 +15.9275 +100.05 -18.1281   +2.72 -17.7606 +132.23
  5.74328 -23.2064 -166.94 +15.9047  +98.46 -18.0320   +2.55 -17.7797 +131.84
  5.84229 -23.2654 -167.93 +15.8659  +96.67 -18.0004   +2.54 -17.9460 +129.75
  5.94129 -22.8963 -164.14 +15.7593  +95.05 -17.9735   +2.48 -18.0028 +128.27
  6.04030 -22.8698 -161.44 +15.7638  +93.74 -17.8940   +2.13 -18.0506 +126.65
  6.13930 -22.6691 -159.51 +15.8300  +92.10 -17.8891   +1.99 -18.4341 +125.96
  6.23831 -22.3780 -157.06 +15.8069  +90.68 -17.8036   +1.81 -18.4727 +123.54
  6.33731 -22.3468 -155.19 +15.6786  +89.79 -17.8097   +1.71 -18.5153 +121.71
  6.43632 -22.0021 -153.35 +15.5328  +88.66 -17.7729   +1.41 -18.6853 +120.31
  6.53532 -21.6645 -150.53 +15.5499  +86.69 -17.6957   +1.13 -18.9311 +119.28
  6.63433 -21.3745 -149.10 +15.4667  +84.96 -17.6696   +1.04 -19.1069 +117.00
  6.73333 -20.8150 -147.42 +15.4110  +83.47 -17.6367    +.84 -19.2354 +115.09
  6.83234 -20.7921 -144.76 +15.4384  +81.86 -17.6022    +.70 -19.3679 +113.86
  6.93134 -20.5617 -144.92 +15.3407  +80.79 -17.5572    +.60 -19.6731 +112.06
  7.03035 -20.0490 -144.08 +15.3055  +79.39 -17.5140    +.46 -19.8132 +110.72
  7.12935 -19.9493 -143.08 +15.2230  +78.02 -17.4508    +.07 -20.1032 +108.39
  7.22836 -19.6353 -142.98 +15.1593  +76.68 -17.4478   -0.00 -20.2710 +106.60
  7.32736 -19.1996 -142.28 +15.0740  +74.86 -17.3941    -.13 -20.4782 +104.48
  7.42637 -18.9936 -142.03 +14.9947  +73.63 -17.3734    -.36 -20.7395 +102.24
  7.52537 -18.5108 -141.78 +14.9567  +72.15 -17.3005    -.55 -20.9179 +100.02
  7.62438 -18.3480 -140.89 +14.9515  +70.66 -17.2823    -.68 -21.0510  +98.21
  7.72338 -18.1517 -141.22 +14.8908  +69.45 -17.2723   -1.06 -21.3184  +95.79
  7.82239 -17.8395 -141.38 +14.8348  +68.20 -17.2708   -1.24 -21.4663  +93.15
  7.92139 -17.6257 -141.27 +14.7085  +66.93 -17.2179   -1.56 -21.8514  +91.00
  8.02040 -17.3798 -141.48 +14.5809  +65.45 -17.2057   -1.60 -22.0786  +89.14
  8.11940 -17.2090 -141.61 +14.5668  +63.89 -17.1162   -1.84 -22.3721  +86.57
  8.21841 -16.9155 -141.89 +14.4959  +62.38 -17.1509   -2.03 -22.5514  +83.62
  8.31741 -16.7489 -142.93 +14.3884  +61.83 -17.0912   -2.24 -22.9015  +81.52
  8.41642 -16.4383 -142.10 +14.2141  +59.46 -17.0397   -2.23 -23.3513  +78.52
  8.51542 -16.4046 -142.61 +14.2916  +58.46 -16.9257   -2.87 -23.4651  +75.78
  8.61443 -16.1372 -143.26 +14.2766  +57.22 -17.0014   -2.76 -23.8577  +71.30
  8.71343 -15.9451 -143.63 +14.1983  +56.07 -16.9557   -2.73 -24.0663  +69.08
  8.81244 -15.8161 -144.11 +14.1328  +55.01 -16.9547   -3.43 -24.4360  +65.57
  8.91144 -15.6345 -144.43 +14.0437  +53.87 -16.9289   -3.23 -24.8701  +60.76
  9.01045 -15.2786 -144.06 +14.0500  +52.53 -16.8173   -3.72 -25.2816  +57.71
  9.10945 -15.1482 -145.07 +13.9204  +51.03 -16.7867   -3.61 -25.8224  +54.65
  9.20846 -14.9327 -145.44 +13.9319  +49.25 -16.7895   -4.23 -25.5868  +50.74
  9.30746 -14.7126 -145.77 +13.8351  +47.71 -16.7302   -4.64 -26.3006  +45.41
  9.40647 -14.5370 -146.25 +13.9677  +46.67 -16.7374   -4.53 -26.6358  +40.65
  9.50547 -14.3524 -146.77 +13.8171  +45.68 -16.6654   -4.77 -26.9084  +35.04
  9.60448 -14.1471 -147.52 +13.7821  +44.37 -16.7013   -5.08 -26.9328  +30.58
  9.70348 -14.0087 -148.57 +13.6657  +43.08 -16.5677   -5.46 -27.2806  +25.96
  9.80249 -13.8260 -149.19 +13.6107  +41.65 -16.5909   -5.86 -27.5654  +21.79
  9.90149 -13.6162 -150.72 +13.5330  +39.99 -16.4907   -6.03 -27.8138  +17.34
 10.00050 -13.5012 -153.14 +13.5039  +38.78 -16.5228   -6.56 -27.9210  +17.51
 10.09950 -13.5434 -153.69 +13.4492  +37.33 -16.4544   -6.80 -27.1668  +12.55
 10.19851 -13.5293 -154.70 +13.3334  +36.36 -16.4525   -7.21 -26.8349   +8.19
 10.29751 -13.4453 -155.05 +13.2572  +35.02 -16.4612   -7.50 -26.7094   +1.56
 10.39652 -13.3726 -155.40 +13.1467  +34.35 -16.4225   -7.72 -26.4719   -3.74
 10.49552 -13.3098 -156.07 +13.1122  +32.77 -16.4195   -8.03 -26.1922   -8.17
 10.59453 -13.1970 -156.89 +12.9187  +31.52 -16.4630   -8.24 -26.0424  -13.21
 10.69353 -13.1348 -157.20 +12.8273  +30.17 -16.3959   -8.32 -25.5894  -17.98
 10.79254 -13.0828 -157.92 +12.7879  +28.78 -16.3627   -8.52 -25.5039  -21.98
 10.89154 -12.9382 -158.66 +12.7702  +27.58 -16.3374   -8.74 -25.1767  -26.25
 10.99055 -12.8729 -158.96 +12.6514  +26.46 -16.3073   -9.21 -24.9050  -30.25
 11.08955 -12.8074 -159.45 +12.5543  +25.64 -16.2421   -8.96 -24.5567  -33.05
 11.18856 -12.7318 -160.19 +12.4000  +24.76 -16.2325   -9.33 -24.1394  -38.23
 11.28756 -12.6253 -160.99 +12.3392  +23.36 -16.2403   -9.78 -23.9406  -41.07
 11.38657 -12.5770 -161.43 +12.1949  +21.85 -16.2220  -10.23 -23.5304  -44.43
 11.48557 -12.4908 -162.31 +12.1077  +20.70 -16.1867  -10.26 -23.4884  -47.70
 11.58458 -12.3816 -162.51 +12.0586  +19.64 -16.1905  -10.48 -23.0188  -50.10
 11.68358 -12.3724 -163.16 +12.0002  +18.40 -16.1492  -10.86 -22.7290  -53.18
 11.78259 -12.3667 -163.75 +11.8879  +17.76 -16.1273  -10.77 -22.5549  -54.64
 11.88159 -12.3051 -164.80 +11.8097  +16.65 -16.1271  -11.28 -22.1468  -57.34
 11.98060 -12.1881 -165.17 +11.6734  +15.66 -16.0833  -11.49 -21.8902  -59.04
 12.07960 -12.1678 -166.34 +11.5350  +14.29 -16.0579  -11.74 -21.6739  -61.15
 12.17861 -11.9624 -167.44 +11.4629  +13.03 -16.1149  -11.84 -21.3027  -63.03
 12.27761 -12.0618 -167.70 +11.3330  +11.80 -16.0231  -12.28 -21.1262  -64.25
 12.37662 -11.9762 -167.99 +11.2344  +10.72 -16.0150  -12.58 -20.9590  -65.88
 12.47562 -11.9418 -168.68 +11.1497   +9.98 -15.9984  -12.64 -20.5258  -67.49
 12.57463 -11.8043 -169.17 +11.1278   +8.90 -15.9518  -12.85 -20.1753  -69.09
 12.67363 -11.8750 -169.85 +10.9076   +8.09 -15.9736  -13.02 -20.0100  -71.39
 12.77264 -11.8254 -170.67 +10.7168   +6.99 -15.9642  -13.18 -19.6104  -72.62
 12.87164 -11.6765 -170.74 +10.7230   +5.64 -15.9079  -13.33 -19.4375  -74.19
 12.97065 -11.7092 -171.65 +10.6142   +4.41 -15.8876  -13.73 -19.3190  -76.13
 13.06965 -11.6481 -172.69 +10.4932   +3.69 -15.8400  -13.83 -19.0857  -77.88
 13.16866 -11.5528 -173.24 +10.4671   +2.76 -15.8287  -14.12 -18.8414  -79.40
 13.26766 -11.6016 -173.60 +10.3468   +1.89 -15.8154  -14.29 -18.6694  -82.24
 13.36667 -11.4790 -174.81 +10.1902   +1.40 -15.7740  -14.71 -18.5553  -82.90
 13.46567 -11.4128 -175.54 +10.0814    +.54 -15.6975  -14.81 -18.4380  -84.14
 13.56468 -11.4353 -175.96  +9.9765    -.76 -15.6887  -15.25 -18.2363  -85.98
 13.66368 -11.4164 -176.23  +9.7502   +2.49 -15.7567  -15.57 -18.0858  -86.42
 13.76269 -11.4713 -177.12  +9.5942   +1.44 -15.6720  -15.36 -17.8326  -87.92
 13.86169 -11.4142 -178.33  +9.5435    +.74 -15.7485  -16.87 -17.7464  -89.41
 13.96070 -11.3756 -177.99  +9.4479    -.09 -15.6967  -16.98 -17.6130  -89.48
 14.05970 -11.3029 -179.23  +9.3630   -1.23 -15.5823  -16.48 -17.3719  -91.55
 14.15871 -11.1853 -179.49  +9.2429   -1.89 -15.5706  -16.20 -17.3007  -93.00
 14.25771 -11.1664 +179.80  +9.1617   -3.08 -15.5581  -16.86 -17.0842  -93.78
 14.35672 -11.2372 +178.97  +9.1181   -3.61 -15.5777  -17.44 -17.0173  -95.83
 14.45572 -11.1822 +178.64  +9.1461   -4.16 -15.4885  -17.27 -16.7883  -96.69
 14.55473 -11.1804 +177.83  +8.9865   -5.13 -15.4351  -17.37 -16.6408  -97.79
 14.65373 -11.1698 +177.37  +8.8848   -6.53 -15.5104  -18.11 -16.4504  -98.60
 14.75274 -11.0692 +176.95  +8.8139   -7.09 -15.4309  -17.82 -16.3325  -99.24
 14.85174 -11.1058 +176.26  +8.7588   -7.88 -15.4369  -18.77 -16.2949 -100.68
 14.95075 -11.1086 +175.31  +8.6588   -8.83 -15.3439  -18.47 -16.1577 -101.16
 15.04975 -11.0194 +174.82  +8.5507   -9.37 -15.3266  -18.72 -15.9591 -101.97
 15.14876 -11.0531 +174.26  +8.5364  -10.21 -15.3183  -19.12 -15.9216 -102.86
 15.24776 -10.9800 +173.26  +8.3960  -10.80 -15.2717  -19.85 -15.7522 -103.54
 15.34677 -10.9954 +172.76  +8.3146  -11.96 -15.3086  -20.02 -15.5506 -104.50
 15.44577 -11.0200 +171.85  +8.2608  -12.67 -15.1846  -20.14 -15.5309 -105.24
 15.54478 -10.9980 +171.73  +8.1880  -13.35 -15.1953  -20.37 -15.4498 -106.37
 15.64378 -10.9804 +171.40  +8.1357  -13.76 -15.1903  -20.86 -15.3279 -107.13
 15.74279 -10.9679 +170.87  +8.0151  -13.92 -15.1570  -20.85 -15.2057 -107.66
 15.84179 -10.9663 +170.28  +7.9622  -15.72 -15.1057  -21.12 -15.1406 -108.18
 15.94080 -11.0517 +170.05  +7.8801  -16.21 -15.1188  -21.94 -14.9751 -108.92
 16.03980 -10.9981 +169.29  +7.8212  -16.95 -15.0976  -22.10 -14.7810 -109.75
 16.13881 -10.9614 +169.11  +7.7670  -17.45 -15.1365  -22.27 -14.6814 -110.25
 16.23781 -10.8728 +168.80  +7.7356  -18.53 -15.1016  -22.61 -14.5189 -111.20
 16.33682 -10.8682 +167.81  +7.6288  -19.40 -15.1525  -22.85 -14.2479 -112.25
 16.43582 -10.7550 +167.22  +7.5925  -20.31 -15.1539  -22.99 -14.1897 -113.80
 16.53483 -10.6162 +166.25  +7.4864  -21.11 -15.0095  -22.22 -13.9095 -115.46
 16.63383 -10.7497 +164.94  +7.3968  -21.94 -15.0435  -22.86 -13.9991 -116.34
 16.73284 -10.5890 +164.87  +7.3616  -22.89 -15.0512  -22.96 -13.8507 -118.45
 16.83184 -10.6684 +163.74  +7.2425  -23.18 -14.8946  -23.16 -13.7896 -118.96
 16.93085 -10.7326 +163.23  +7.2695  -24.18 -14.9080  -23.78 -13.6998 -119.63
 17.02985 -10.7981 +162.78  +7.0580  -24.64 -14.8714  -23.81 -13.7565 -120.26
 17.12886 -10.6040 +162.21  +7.0681  -25.01 -14.9244  -24.01 -13.7282 -121.15
 17.22786 -10.6984 +161.52  +6.8944  -26.16 -14.8259  -24.33 -13.5132 -121.32
 17.32687 -10.6913 +161.08  +6.9235  -26.64 -14.7878  -24.38 -13.4997 -122.72
 17.42587 -10.6220 +161.11  +6.7765  -27.66 -14.7884  -24.89 -13.3442 -123.12
 17.52488 -10.6972 +159.38  +6.7925  -28.26 -14.6798  -25.00 -13.3641 -124.33
 17.62388 -10.6801 +159.31  +6.6677  -29.83 -14.6784  -25.54 -13.2423 -124.22
 17.72289 -10.6266 +158.80  +6.5664  -29.80 -14.6945  -25.59 -13.1125 -125.50
 17.82189 -10.6856 +158.02  +6.5248  -30.52 -14.6015  -26.12 -13.0634 -126.21
 17.92090 -10.6346 +157.64  +6.5051  -31.29 -14.6310  -26.13 -13.0387 -126.99
 18.01990 -10.6505 +157.24  +6.3428  -31.84 -14.6442  -25.94 -13.0375 -127.70
 18.11891 -10.6749 +156.63  +6.3851  -32.64 -14.5914  -26.76 -12.9408 -128.42
 18.21791 -10.6282 +155.83  +6.2299  -33.08 -14.5154  -26.98 -12.8796 -129.57
 18.31692 -10.6024 +155.08  +6.1298  -33.75 -14.5080  -27.66 -12.7736 -129.98
 18.41592 -10.6360 +154.54  +6.0502  -34.64 -14.4553  -27.39 -12.7451 -130.60
 18.51493 -10.6280 +153.97  +5.9631  -35.46 -14.4481  -28.09 -12.7113 -131.58
 18.61393 -10.6146 +153.26  +6.0283  -36.03 -14.4638  -28.10 -12.6795 -132.30
 18.71294 -10.6042 +152.86  +5.9029  -36.49 -14.4165  -28.19 -12.6095 -133.45
 18.81194 -10.5986 +152.57  +5.8488  -37.19 -14.3402  -28.59 -12.5321 -134.02
 18.91095 -10.5455 +152.07  +5.7884  -38.00 -14.2903  -28.78 -12.4383 -134.93
 19.00995 -10.5392 +151.89  +5.6556  -38.38 -14.2701  -28.96 -12.4509 -135.06
 19.10896 -10.5385 +150.94  +5.6748  -39.47 -14.2329  -29.41 -12.3775 -136.15
 19.20796 -10.5038 +149.92  +5.5708  -40.01 -14.2072  -29.74 -12.4135 -137.07
 19.30697 -10.3946 +149.08  +5.5867  -40.69 -14.2021  -30.54 -12.3156 -137.42
 19.40597 -10.4087 +147.68  +5.3754  -41.03 -14.1485  -30.99 -12.2204 -137.24
 19.50498 -10.5519 +146.41  +5.3874  -41.40 -14.2062  -31.32 -12.1927 -137.83
 19.60398 -10.5333 +146.11  +5.2647  -42.31 -14.2328  -31.34 -12.0353 -138.69
 19.70299 -10.5770 +145.15  +5.1735  -42.87 -14.1855  -31.41 -12.0416 -139.80
 19.80199 -10.5237 +144.70  +5.1323  -43.42 -14.1975  -31.23 -11.9885 -140.45
 19.90100 -10.5790 +143.63  +5.0536  -43.89 -14.1283  -31.38 -11.9667 -140.93
 20.00000 -10.5493 +142.38  +4.9692  -44.49 -14.1593  -31.42 -11.9407 -140.70


